T36FC 156336:736 SEGGER J-Link V6.30h Log File (0000ms, 119138ms total)
T36FC 156336:736 DLL Compiled: Mar 16 2018 18:02:51 (0000ms, 119138ms total)
T36FC 156336:736 Logging started @ 2020-05-01 10:17 (0000ms, 119138ms total)
T36FC 156336:736 JLINK_SetWarnOutHandler(...) (0000ms, 119138ms total)
T36FC 156336:736 JLINK_OpenEx(...)
Firmware: J-Link OB-STM32F072-CortexM compiled Jan  7 2019 14:09:37
Hardware: V1.00
Feature(s): GDB, RDI, FlashBP, FlashDL, JFlash, RDDI
TELNET listener socket opened on port 19021WEBSRV 
Starting webserver (0140ms, 119278ms total)
T36FC 156336:736 WEBSRV Webserver running on local port 19080 (0140ms, 119278ms total)
T36FC 156336:736   returns O.K. (0140ms, 119278ms total)
T36FC 156336:876 JLINK_GetEmuCaps()  returns 0xB8EA5A33 (0000ms, 119278ms total)
T36FC 156336:877 JLINK_TIF_GetAvailable(...) (0000ms, 119278ms total)
T36FC 156336:877 JLINK_SetErrorOutHandler(...) (0000ms, 119278ms total)
T36FC 156336:877 JLINK_ExecCommand("ProjectFile = "D:\GitHub\STM32Nucleo\CCM3310S_Download\MDK-ARM\JLinkSettings.ini"", ...).   returns 0x00 (0003ms, 119281ms total)
T36FC 156336:880 JLINK_ExecCommand("Device = STM32F103VE", ...). Device "STM32F103VE" selected.  returns 0x00 (0002ms, 119283ms total)
T36FC 156336:883 JLINK_ExecCommand("DisableConnectionTimeout", ...).   returns 0x01 (0000ms, 119283ms total)
T36FC 156336:883 JLINK_GetHardwareVersion()  returns 0x2710 (0000ms, 119283ms total)
T36FC 156336:883 JLINK_GetDLLVersion()  returns 63008 (0000ms, 119283ms total)
T36FC 156336:883 JLINK_GetFirmwareString(...) (0000ms, 119283ms total)
T36FC 156336:883 JLINK_GetDLLVersion()  returns 63008 (0000ms, 119283ms total)
T36FC 156336:883 JLINK_GetCompileDateTime() (0000ms, 119283ms total)
T36FC 156336:883 JLINK_GetFirmwareString(...) (0000ms, 119283ms total)
T36FC 156336:883 JLINK_GetHardwareVersion()  returns 0x2710 (0000ms, 119283ms total)
T36FC 156336:883 JLINK_TIF_Select(JLINKARM_TIF_SWD)  returns 0x00 (0001ms, 119284ms total)
T36FC 156336:884 JLINK_SetSpeed(1000) (0000ms, 119284ms total)
T36FC 156336:884 JLINK_GetId() >0x10B TIF>Found SW-DP with ID 0x1BA01477 >0x0D TIF> >0x28 TIF> >0x0D TIF> >0x28 TIF> >0x0D TIF> >0x28 TIF> >0x0D TIF> >0x28 TIF> >0x0D TIF> >0x21 TIF> >0x0D TIF> >0x28 TIF> >0x0D TIF> >0x28 TIF> >0x0D TIF> >0x28 TIF> >0x0D TIF> >0x21 TIF> >0x0D TIF> >0x21 TIF> >0x0D TIF> >0x28 TIF> >0x0D TIF> >0x21 TIF> >0x0D TIF> >0x21 TIF> >0x0D TIF> >0x28 TIF> >0x0D TIF> >0x21 TIF> >0x0D TIF> >0x21 TIF> >0x0D TIF> >0x28 TIF> >0x0D TIF> >0x21 TIF> >0x0D TIF> >0x21 TIF> >0x0D TIF>
 >0x28 TIF> >0x0D TIF> >0x21 TIF> >0x0D TIF> >0x21 TIF> >0x0D TIF> >0x28 TIF> >0x0D TIF> >0x21 TIF> >0x0D TIF> >0x21 TIF> >0x0D TIF> >0x28 TIF> >0x0D TIF> >0x21 TIF> >0x0D TIF> >0x21 TIF> >0x10B TIF>Found SW-DP with ID 0x1BA01477 >0x0D TIF> >0x28 TIF> >0x0D TIF> >0x28 TIF> >0x0D TIF> >0x28 TIF> >0x0D TIF> >0x28 TIF> >0x0D TIF> >0x21 TIF> >0x0D TIF> >0x28 TIF>Scanning AP map to find all available APs >0x0D TIF> >0x28 TIF> >0x0D TIF> >0x21 TIF> >0x0D TIF> >0x21 TIF> >0x0D TIF> >0x28 TIF> >0x0D TIF>
 >0x21 TIF> >0x0D TIF> >0x21 TIF>AP[1]: Stopped AP scan as end of AP map has been reachedAP[0]: AHB-AP (IDR: 0x14770011)Iterating through AP map to find AHB-AP to use >0x42 TIF> >0x28 TIF> >0x0D TIF> >0x28 TIF> >0x0D TIF> >0x21 TIF> >0x0D TIF> >0x21 TIF> >0x42 TIF> >0x28 TIF> >0x0D TIF> >0x28 TIF> >0x0D TIF> >0x28 TIF> >0x0D TIF> >0x21 TIF> >0x0D TIF> >0x21 TIF>AP[0]: Core foundAP[0]: AHB-AP ROM base: 0xE00FF000 >0x0D TIF> >0x28 TIF> >0x0D TIF> >0x28 TIF> >0x0D TIF> >0x28 TIF> >0x0D TIF> >0x21 TIF>
 >0x0D TIF> >0x21 TIF>CPUID register: 0x411FC231. Implementer code: 0x41 (ARM)Found Cortex-M3 r1p1, Little endian. -- CPU_ReadMem(4 bytes @ 0xE000EDF0) -- CPU_WriteMem(4 bytes @ 0xE000EDF0) -- CPU_ReadMem(4 bytes @ 0xE0002000)FPUnit: 6 code (BP) slots and 2 literal slots -- CPU_ReadMem(4 bytes @ 0xE000EDFC) -- CPU_WriteMem(4 bytes @ 0xE000EDFC) -- CPU_ReadMem(4 bytes @ 0xE0001000) -- CPU_WriteMem(4 bytes @ 0xE0001000) -- CPU_ReadMem(4 bytes @ 0xE000ED88) -- CPU_WriteMem(4 bytes @ 0xE000ED88)
 -- CPU_ReadMem(4 bytes @ 0xE000ED88) -- CPU_WriteMem(4 bytes @ 0xE000ED88)CoreSight components:ROMTbl[0] @ E00FF000 -- CPU_ReadMem(16 bytes @ 0xE00FF000) -- CPU_ReadMem(16 bytes @ 0xE000EFF0) -- CPU_ReadMem(16 bytes @ 0xE000EFE0)ROMTbl[0][0]: E000E000, CID: B105E00D, PID: 001BB000 SCS -- CPU_ReadMem(16 bytes @ 0xE0001FF0) -- CPU_ReadMem(16 bytes @ 0xE0001FE0)ROMTbl[0][1]: E0001000, CID: B105E00D, PID: 001BB002 DWT -- CPU_ReadMem(16 bytes @ 0xE0002FF0) -- CPU_ReadMem(16 bytes @ 0xE0002FE0)
ROMTbl[0][2]: E0002000, CID: B105E00D, PID: 000BB003 FPB -- CPU_ReadMem(16 bytes @ 0xE0000FF0) -- CPU_ReadMem(16 bytes @ 0xE0000FE0)ROMTbl[0][3]: E0000000, CID: B105E00D, PID: 001BB001 ITM -- CPU_ReadMem(16 bytes @ 0xE00FF010) -- CPU_ReadMem(16 bytes @ 0xE0040FF0) -- CPU_ReadMem(16 bytes @ 0xE0040FE0)ROMTbl[0][4]: E0040000, CID: B105900D, PID: 001BB923 TPIU-Lite -- CPU_ReadMem(16 bytes @ 0xE0041FF0) -- CPU_ReadMem(16 bytes @ 0xE0041FE0)ROMTbl[0][5]: E0041000, CID: B105900D, PID: 101BB924 ETM-M3
 >0x0D TIF> >0x21 TIF>  returns 0x1BA01477 (0166ms, 119450ms total)
T36FC 156337:051 JLINK_GetDLLVersion()  returns 63008 (0000ms, 119450ms total)
T36FC 156337:051 JLINK_CORE_GetFound()  returns 0x30000FF (0000ms, 119450ms total)
T36FC 156337:051 JLINK_GetDebugInfo(0x100 = JLINKARM_ROM_TABLE_ADDR_INDEX) -- Value=0xE00FF000  returns 0x00 (0000ms, 119450ms total)
T36FC 156337:051 JLINK_GetDebugInfo(0x100 = JLINKARM_ROM_TABLE_ADDR_INDEX) -- Value=0xE00FF000  returns 0x00 (0000ms, 119450ms total)
T36FC 156337:051 JLINK_GetDebugInfo(0x101 = JLINKARM_DEBUG_INFO_ETM_ADDR_INDEX) -- Value=0xE0041000  returns 0x00 (0000ms, 119450ms total)
T36FC 156337:051 JLINK_ReadMemEx(0xE0041FD0, 0x0020 Bytes, ..., Flags = 0x02000004) -- CPU_ReadMem(32 bytes @ 0xE0041FD0) - Data: 04 00 00 00 00 00 00 00 00 00 00 00 00 00 00 00 ...  returns 0x20 (0002ms, 119452ms total)
T36FC 156337:053 JLINK_GetDebugInfo(0x102 = JLINKARM_DEBUG_INFO_MTB_ADDR_INDEX) -- Value=0x00000000  returns 0x00 (0000ms, 119452ms total)
T36FC 156337:053 JLINK_GetDebugInfo(0x103 = JLINKARM_DEBUG_INFO_TPIU_ADDR_INDEX) -- Value=0xE0040000  returns 0x00 (0000ms, 119452ms total)
T36FC 156337:053 JLINK_GetDebugInfo(0x104 = JLINKARM_DEBUG_INFO_ITM_ADDR_INDEX) -- Value=0xE0000000  returns 0x00 (0000ms, 119452ms total)
T36FC 156337:053 JLINK_GetDebugInfo(0x105 = JLINKARM_DEBUG_INFO_DWT_ADDR_INDEX) -- Value=0xE0001000  returns 0x00 (0000ms, 119452ms total)
T36FC 156337:053 JLINK_GetDebugInfo(0x106 = JLINKARM_DEBUG_INFO_FPB_ADDR_INDEX) -- Value=0xE0002000  returns 0x00 (0000ms, 119452ms total)
T36FC 156337:053 JLINK_GetDebugInfo(0x107 = JLINKARM_DEBUG_INFO_NVIC_ADDR_INDEX) -- Value=0xE000E000  returns 0x00 (0000ms, 119452ms total)
T36FC 156337:053 JLINK_GetDebugInfo(0x10C = JLINKARM_DEBUG_INFO_DBG_ADDR_INDEX) -- Value=0xE000EDF0  returns 0x00 (0000ms, 119452ms total)
T36FC 156337:053 JLINK_GetDebugInfo(0x01 = Unknown) -- Value=0x00000000  returns 0x00 (0000ms, 119452ms total)
T36FC 156337:054 JLINK_ReadMemU32(0xE000ED00, 0x0001 Items, ...) -- CPU_ReadMem(4 bytes @ 0xE000ED00) - Data: 31 C2 1F 41  returns 0x01 (0001ms, 119453ms total)
T36FC 156337:055 JLINK_GetDebugInfo(0x10F = JLINKARM_DEBUG_INFO_HAS_CORTEX_M_SECURITY_EXT_INDEX) -- Value=0x00000000  returns 0x00 (0000ms, 119453ms total)
T36FC 156337:055 JLINK_SetResetType(JLINKARM_CM3_RESET_TYPE_NORMAL)  returns JLINKARM_CM3_RESET_TYPE_NORMAL (0000ms, 119453ms total)
T36FC 156337:055 JLINK_Reset() -- CPU is running -- CPU_WriteMem(4 bytes @ 0xE000EDF0) -- CPU is running -- CPU_WriteMem(4 bytes @ 0xE000EDFC)Reset: Halt core after reset via DEMCR.VC_CORERESET. >0x35 TIF>Reset: Reset device via AIRCR.SYSRESETREQ. -- CPU is running -- CPU_WriteMem(4 bytes @ 0xE000ED0C) >0x0D TIF> >0x28 TIF> -- CPU_ReadMem(4 bytes @ 0xE000EDF0) -- CPU_ReadMem(4 bytes @ 0xE000EDF0) -- CPU is running -- CPU_WriteMem(4 bytes @ 0xE000EDF0) -- CPU is running
 -- CPU_WriteMem(4 bytes @ 0xE000EDFC) -- CPU_ReadMem(4 bytes @ 0xE000EDF0) -- CPU_WriteMem(4 bytes @ 0xE0002000) -- CPU_ReadMem(4 bytes @ 0xE000EDFC) -- CPU_ReadMem(4 bytes @ 0xE0001000) (0079ms, 119532ms total)
T36FC 156337:135 JLINK_ReadReg(R15 (PC))  returns 0x080001DC (0000ms, 119532ms total)
T36FC 156337:135 JLINK_ReadReg(XPSR)  returns 0x01000000 (0000ms, 119532ms total)
T36FC 156337:135 JLINK_Halt()  returns 0x00 (0000ms, 119532ms total)
T36FC 156337:135 JLINK_ReadMemU32(0xE000EDF0, 0x0001 Items, ...) -- CPU_ReadMem(4 bytes @ 0xE000EDF0) - Data: 03 00 03 00  returns 0x01 (0001ms, 119533ms total)
T36FC 156337:136 JLINK_WriteU32(0xE000EDF0, 0xA05F0003) -- CPU_WriteMem(4 bytes @ 0xE000EDF0)  returns 0x00 (0002ms, 119535ms total)
T36FC 156337:138 JLINK_WriteU32(0xE000EDFC, 0x01000000) -- CPU_WriteMem(4 bytes @ 0xE000EDFC)  returns 0x00 (0002ms, 119537ms total)
T36FC 156337:140 JLINK_GetHWStatus(...)  returns 0x00 (0000ms, 119537ms total)
T36FC 156337:140 JLINK_GetNumBPUnits(Type = 0xFFFFFF00)  returns 0x06 (0000ms, 119537ms total)
T36FC 156337:140 JLINK_GetNumBPUnits(Type = 0xF0)  returns 0x2000 (0000ms, 119537ms total)
T36FC 156337:140 JLINK_GetNumWPUnits()  returns 0x04 (0000ms, 119537ms total)
T36FC 156337:140 JLINK_GetSpeed()  returns 0x3E8 (0000ms, 119537ms total)
T36FC 156337:141 JLINK_ReadMemU32(0xE000E004, 0x0001 Items, ...) -- CPU_ReadMem(4 bytes @ 0xE000E004) - Data: 01 00 00 00  returns 0x01 (0002ms, 119540ms total)
T36FC 156337:143 JLINK_ReadMemU32(0xE000E004, 0x0001 Items, ...) -- CPU_ReadMem(4 bytes @ 0xE000E004) - Data: 01 00 00 00  returns 0x01 (0000ms, 119540ms total)
T36FC 156337:143 JLINK_WriteMemEx(0xE0001000, 0x001C Bytes, ..., Flags = 0x02000004) - Data: 01 00 00 00 00 00 00 00 00 00 00 00 00 00 00 00 ... -- CPU_WriteMem(28 bytes @ 0xE0001000)  returns 0x1C (0005ms, 119545ms total)
T36FC 156337:148 JLINK_ReadReg(R15 (PC))  returns 0x080001DC (0000ms, 119545ms total)
T36FC 156337:148 JLINK_ReadReg(XPSR)  returns 0x01000000 (0000ms, 119545ms total)
T36FC 156337:340 JLINK_SetResetType(JLINKARM_CM3_RESET_TYPE_NORMAL)  returns JLINKARM_CM3_RESET_TYPE_NORMAL (0000ms, 119545ms total)
T36FC 156337:340 JLINK_Reset() -- CPU_WriteMem(4 bytes @ 0xE000EDF0) -- CPU_WriteMem(4 bytes @ 0xE000EDFC)Reset: Halt core after reset via DEMCR.VC_CORERESET. >0x35 TIF>Reset: Reset device via AIRCR.SYSRESETREQ. -- CPU_WriteMem(4 bytes @ 0xE000ED0C) >0x0D TIF> >0x28 TIF> -- CPU_ReadMem(4 bytes @ 0xE000EDF0) -- CPU_ReadMem(4 bytes @ 0xE000EDF0) -- CPU_WriteMem(4 bytes @ 0xE000EDF0) -- CPU_WriteMem(4 bytes @ 0xE000EDFC) -- CPU_ReadMem(4 bytes @ 0xE000EDF0) -- CPU_WriteMem(4 bytes @ 0xE0002000)
 -- CPU_ReadMem(4 bytes @ 0xE000EDFC) -- CPU_ReadMem(4 bytes @ 0xE0001000) (0078ms, 119623ms total)
T36FC 156337:418 JLINK_ReadReg(R15 (PC))  returns 0x080001DC (0000ms, 119623ms total)
T36FC 156337:418 JLINK_ReadReg(XPSR)  returns 0x01000000 (0000ms, 119623ms total)
T36FC 156337:420 JLINK_ReadMemEx(0x080001DC, 0x003C Bytes, ..., Flags = 0x02000000) -- CPU_ReadMem(128 bytes @ 0x080001C0) -- Updating C cache (128 bytes @ 0x080001C0) -- Read from C cache (60 bytes @ 0x080001DC) - Data: 06 48 80 47 06 48 00 47 FE E7 FE E7 FE E7 FE E7 ...  returns 0x3C (0003ms, 119626ms total)
T36FC 156341:031 JLINK_ReadReg(R0)  returns 0x20007E78 (0001ms, 119627ms total)
T36FC 156341:032 JLINK_ReadReg(R1)  returns 0x0000010B (0000ms, 119627ms total)
T36FC 156341:032 JLINK_ReadReg(R2)  returns 0x00000000 (0000ms, 119627ms total)
T36FC 156341:032 JLINK_ReadReg(R3)  returns 0x00000000 (0000ms, 119627ms total)
T36FC 156341:032 JLINK_ReadReg(R4)  returns 0x00000002 (0000ms, 119627ms total)
T36FC 156341:032 JLINK_ReadReg(R5)  returns 0x200065BC (0000ms, 119627ms total)
T36FC 156341:032 JLINK_ReadReg(R6)  returns 0x000007AA (0000ms, 119627ms total)
T36FC 156341:032 JLINK_ReadReg(R7)  returns 0xA5A5A5A5 (0000ms, 119627ms total)
T36FC 156341:032 JLINK_ReadReg(R8)  returns 0x000007AA (0000ms, 119627ms total)
T36FC 156341:032 JLINK_ReadReg(R9)  returns 0xA5A5A5A5 (0000ms, 119627ms total)
T36FC 156341:032 JLINK_ReadReg(R10)  returns 0xA5A5A5A5 (0000ms, 119627ms total)
T36FC 156341:032 JLINK_ReadReg(R11)  returns 0xA5A5A5A5 (0000ms, 119627ms total)
T36FC 156341:032 JLINK_ReadReg(R12)  returns 0x00000000 (0000ms, 119627ms total)
T36FC 156341:032 JLINK_ReadReg(R13 (SP))  returns 0x20009698 (0000ms, 119627ms total)
T36FC 156341:032 JLINK_ReadReg(R14)  returns 0xFFFFFFFF (0000ms, 119627ms total)
T36FC 156341:032 JLINK_ReadReg(R15 (PC))  returns 0x080001DC (0000ms, 119627ms total)
T36FC 156341:032 JLINK_ReadReg(XPSR)  returns 0x01000000 (0000ms, 119627ms total)
T36FC 156341:032 JLINK_ReadReg(MSP)  returns 0x20009698 (0000ms, 119627ms total)
T36FC 156341:032 JLINK_ReadReg(PSP)  returns 0x20006CE8 (0000ms, 119627ms total)
T36FC 156341:032 JLINK_ReadReg(CFBP)  returns 0x00000000 (0000ms, 119627ms total)
T36FC 156341:074 JLINK_ReadMemEx(0x20006D74, 0x0020 Bytes, ..., Flags = 0x02000000) -- CPU_ReadMem(128 bytes @ 0x20006D40) -- Updating C cache (128 bytes @ 0x20006D40) -- Read from C cache (32 bytes @ 0x20006D74) - Data: 0D 5D 46 A0 B9 CF CB 41 00 00 00 00 00 00 00 00 ...  returns 0x20 (0003ms, 119630ms total)
T48FC 156341:124 JLINK_ReadMemEx(0x080001DC, 0x0002 Bytes, ..., Flags = 0x02000000) -- Read from C cache (2 bytes @ 0x080001DC) - Data: 06 48  returns 0x02 (0000ms, 119630ms total)
T48FC 156341:124 JLINK_SetBPEx(Addr = 0x080097D8, Type = 0xFFFFFFF2)  returns 0x00000001 (0000ms, 119630ms total)
T48FC 156341:124 JLINK_SetBPEx(Addr = 0x0800595C, Type = 0xFFFFFFF2)  returns 0x00000002 (0000ms, 119630ms total)
T48FC 156341:124 JLINK_SetBPEx(Addr = 0x08005EEE, Type = 0xFFFFFFF2)  returns 0x00000003 (0000ms, 119630ms total)
T48FC 156341:124 JLINK_SetBPEx(Addr = 0x08005CD4, Type = 0xFFFFFFF2)  returns 0x00000004 (0000ms, 119630ms total)
T48FC 156341:124 JLINK_Go() -- CPU_WriteMem(4 bytes @ 0xE0002000) -- CPU_WriteMem(4 bytes @ 0xE0002000) -- CPU_WriteMem(4 bytes @ 0xE0002000) -- CPU_WriteMem(4 bytes @ 0xE0002000) -- CPU_ReadMem(4 bytes @ 0xE0001000) -- CPU_WriteMem(4 bytes @ 0xE0002008) -- CPU_WriteMem(4 bytes @ 0xE000200C) -- CPU_WriteMem(4 bytes @ 0xE0002010) -- CPU_WriteMem(4 bytes @ 0xE0002014) -- CPU_WriteMem(4 bytes @ 0xE0002018) -- CPU_WriteMem(4 bytes @ 0xE000201C) -- CPU_WriteMem(4 bytes @ 0xE0001004) (0009ms, 119639ms total)
T48FC 156341:234 JLINK_IsHalted()  returns TRUE (0007ms, 119646ms total)
T48FC 156341:241 JLINK_Halt()  returns 0x00 (0000ms, 119639ms total)
T48FC 156341:241 JLINK_IsHalted()  returns TRUE (0000ms, 119639ms total)
T48FC 156341:241 JLINK_IsHalted()  returns TRUE (0000ms, 119639ms total)
T48FC 156341:241 JLINK_IsHalted()  returns TRUE (0000ms, 119639ms total)
T48FC 156341:241 JLINK_ReadReg(R15 (PC))  returns 0x080097D8 (0000ms, 119639ms total)
T48FC 156341:241 JLINK_ReadReg(XPSR)  returns 0x61000000 (0000ms, 119639ms total)
T48FC 156341:241 JLINK_ClrBPEx(BPHandle = 0x00000001)  returns 0x00 (0000ms, 119639ms total)
T48FC 156341:241 JLINK_ClrBPEx(BPHandle = 0x00000002)  returns 0x00 (0000ms, 119639ms total)
T48FC 156341:241 JLINK_ClrBPEx(BPHandle = 0x00000003)  returns 0x00 (0000ms, 119639ms total)
T48FC 156341:241 JLINK_ClrBPEx(BPHandle = 0x00000004)  returns 0x00 (0000ms, 119639ms total)
T48FC 156341:241 JLINK_ReadMemU32(0xE000ED30, 0x0001 Items, ...) -- CPU_ReadMem(4 bytes @ 0xE000ED30) - Data: 02 00 00 00  returns 0x01 (0001ms, 119640ms total)
T48FC 156341:242 JLINK_ReadMemU32(0xE0001028, 0x0001 Items, ...) -- CPU_ReadMem(4 bytes @ 0xE0001028) - Data: 00 00 00 00  returns 0x01 (0001ms, 119641ms total)
T48FC 156341:243 JLINK_ReadMemU32(0xE0001038, 0x0001 Items, ...) -- CPU_ReadMem(4 bytes @ 0xE0001038) - Data: 00 02 00 00  returns 0x01 (0000ms, 119641ms total)
T48FC 156341:243 JLINK_ReadMemU32(0xE0001048, 0x0001 Items, ...) -- CPU_ReadMem(4 bytes @ 0xE0001048) - Data: 00 00 00 00  returns 0x01 (0001ms, 119642ms total)
T48FC 156341:244 JLINK_ReadMemU32(0xE0001058, 0x0001 Items, ...) -- CPU_ReadMem(4 bytes @ 0xE0001058) - Data: 00 00 00 00  returns 0x01 (0001ms, 119643ms total)
T48FC 156341:245 JLINK_ReadReg(R0)  returns 0x080097D9 (0000ms, 119643ms total)
T48FC 156341:245 JLINK_ReadReg(R1)  returns 0x20009698 (0000ms, 119643ms total)
T48FC 156341:245 JLINK_ReadReg(R2)  returns 0x00000000 (0000ms, 119643ms total)
T48FC 156341:245 JLINK_ReadReg(R3)  returns 0x08006E25 (0000ms, 119643ms total)
T48FC 156341:245 JLINK_ReadReg(R4)  returns 0x080279DC (0000ms, 119643ms total)
T48FC 156341:245 JLINK_ReadReg(R5)  returns 0x080279DC (0000ms, 119643ms total)
T48FC 156341:245 JLINK_ReadReg(R6)  returns 0x000007AA (0000ms, 119643ms total)
T48FC 156341:245 JLINK_ReadReg(R7)  returns 0xA5A5A5A5 (0000ms, 119643ms total)
T48FC 156341:245 JLINK_ReadReg(R8)  returns 0x000007AA (0000ms, 119643ms total)
T48FC 156341:245 JLINK_ReadReg(R9)  returns 0xA5A5A5A5 (0000ms, 119643ms total)
T48FC 156341:245 JLINK_ReadReg(R10)  returns 0xA5A5A5A5 (0000ms, 119643ms total)
T48FC 156341:245 JLINK_ReadReg(R11)  returns 0xA5A5A5A5 (0000ms, 119643ms total)
T48FC 156341:245 JLINK_ReadReg(R12)  returns 0x00000000 (0000ms, 119643ms total)
T48FC 156341:245 JLINK_ReadReg(R13 (SP))  returns 0x20009698 (0001ms, 119644ms total)
T48FC 156341:246 JLINK_ReadReg(R14)  returns 0x080007C5 (0000ms, 119644ms total)
T48FC 156341:246 JLINK_ReadReg(R15 (PC))  returns 0x080097D8 (0000ms, 119644ms total)
T48FC 156341:246 JLINK_ReadReg(XPSR)  returns 0x61000000 (0000ms, 119644ms total)
T48FC 156341:246 JLINK_ReadReg(MSP)  returns 0x20009698 (0000ms, 119644ms total)
T48FC 156341:246 JLINK_ReadReg(PSP)  returns 0x20006CE8 (0000ms, 119644ms total)
T48FC 156341:246 JLINK_ReadReg(CFBP)  returns 0x00000000 (0000ms, 119644ms total)
T36FC 156341:250 JLINK_ReadMemEx(0x20006D74, 0x0020 Bytes, ..., Flags = 0x02000000) -- CPU_ReadMem(128 bytes @ 0x20006D40) -- Updating C cache (128 bytes @ 0x20006D40) -- Read from C cache (32 bytes @ 0x20006D74) - Data: 00 00 00 00 00 00 00 00 00 00 00 00 00 00 00 00 ...  returns 0x20 (0003ms, 119647ms total)
T48FC 156343:038 JLINK_ReadMemEx(0x080097D8, 0x0002 Bytes, ..., Flags = 0x02000000) -- CPU_ReadMem(64 bytes @ 0x080097C0) -- Updating C cache (64 bytes @ 0x080097C0) -- Read from C cache (2 bytes @ 0x080097D8) - Data: F8 F7  returns 0x02 (0001ms, 119648ms total)
T48FC 156343:039 JLINK_SetBPEx(Addr = 0x0800595C, Type = 0xFFFFFFF2)  returns 0x00000005 (0000ms, 119648ms total)
T48FC 156343:039 JLINK_SetBPEx(Addr = 0x08005EEE, Type = 0xFFFFFFF2)  returns 0x00000006 (0000ms, 119648ms total)
T48FC 156343:039 JLINK_SetBPEx(Addr = 0x08005CD4, Type = 0xFFFFFFF2)  returns 0x00000007 (0000ms, 119648ms total)
T48FC 156343:039 JLINK_Go() -- CPU_WriteMem(4 bytes @ 0xE0002000) -- CPU_WriteMem(4 bytes @ 0xE0002000) -- CPU_WriteMem(4 bytes @ 0xE0002000) -- CPU_ReadMem(4 bytes @ 0xE0001000) -- CPU_WriteMem(4 bytes @ 0xE0002008) -- CPU_WriteMem(4 bytes @ 0xE000200C) -- CPU_WriteMem(4 bytes @ 0xE0002010) -- CPU_WriteMem(4 bytes @ 0xE0002014) (0007ms, 119655ms total)
T48FC 156343:147 JLINK_IsHalted()  returns TRUE (0007ms, 119662ms total)
T48FC 156343:155 JLINK_Halt()  returns 0x00 (0000ms, 119655ms total)
T48FC 156343:155 JLINK_IsHalted()  returns TRUE (0000ms, 119655ms total)
T48FC 156343:155 JLINK_IsHalted()  returns TRUE (0000ms, 119655ms total)
T48FC 156343:155 JLINK_IsHalted()  returns TRUE (0000ms, 119655ms total)
T48FC 156343:155 JLINK_ReadReg(R15 (PC))  returns 0x0800595C (0000ms, 119655ms total)
T48FC 156343:155 JLINK_ReadReg(XPSR)  returns 0x41000000 (0000ms, 119655ms total)
T48FC 156343:155 JLINK_ClrBPEx(BPHandle = 0x00000005)  returns 0x00 (0000ms, 119655ms total)
T48FC 156343:155 JLINK_ClrBPEx(BPHandle = 0x00000006)  returns 0x00 (0000ms, 119655ms total)
T48FC 156343:155 JLINK_ClrBPEx(BPHandle = 0x00000007)  returns 0x00 (0000ms, 119655ms total)
T48FC 156343:155 JLINK_ReadMemU32(0xE000ED30, 0x0001 Items, ...) -- CPU_ReadMem(4 bytes @ 0xE000ED30) - Data: 02 00 00 00  returns 0x01 (0001ms, 119656ms total)
T48FC 156343:156 JLINK_ReadMemU32(0xE0001028, 0x0001 Items, ...) -- CPU_ReadMem(4 bytes @ 0xE0001028) - Data: 00 00 00 00  returns 0x01 (0001ms, 119657ms total)
T48FC 156343:157 JLINK_ReadMemU32(0xE0001038, 0x0001 Items, ...) -- CPU_ReadMem(4 bytes @ 0xE0001038) - Data: 00 02 00 00  returns 0x01 (0001ms, 119658ms total)
T48FC 156343:159 JLINK_ReadMemU32(0xE0001048, 0x0001 Items, ...) -- CPU_ReadMem(4 bytes @ 0xE0001048) - Data: 00 00 00 00  returns 0x01 (0000ms, 119658ms total)
T48FC 156343:160 JLINK_ReadMemU32(0xE0001058, 0x0001 Items, ...) -- CPU_ReadMem(4 bytes @ 0xE0001058) - Data: 00 00 00 00  returns 0x01 (0000ms, 119658ms total)
T48FC 156343:161 JLINK_ReadReg(R0)  returns 0x00000000 (0000ms, 119658ms total)
T48FC 156343:161 JLINK_ReadReg(R1)  returns 0xA5A5A5A5 (0000ms, 119658ms total)
T48FC 156343:161 JLINK_ReadReg(R2)  returns 0xA5A5A5A5 (0000ms, 119658ms total)
T48FC 156343:161 JLINK_ReadReg(R3)  returns 0xA5A5A5A5 (0000ms, 119658ms total)
T48FC 156343:161 JLINK_ReadReg(R4)  returns 0xA5A5A5A5 (0000ms, 119658ms total)
T48FC 156343:161 JLINK_ReadReg(R5)  returns 0x00000000 (0000ms, 119658ms total)
T48FC 156343:161 JLINK_ReadReg(R6)  returns 0xA5A5A5A5 (0000ms, 119658ms total)
T48FC 156343:161 JLINK_ReadReg(R7)  returns 0xA5A5A5A5 (0000ms, 119658ms total)
T48FC 156343:161 JLINK_ReadReg(R8)  returns 0xA5A5A5A5 (0000ms, 119658ms total)
T48FC 156343:161 JLINK_ReadReg(R9)  returns 0xA5A5A5A5 (0000ms, 119658ms total)
T48FC 156343:161 JLINK_ReadReg(R10)  returns 0xA5A5A5A5 (0001ms, 119659ms total)
T48FC 156343:162 JLINK_ReadReg(R11)  returns 0xA5A5A5A5 (0000ms, 119659ms total)
T48FC 156343:162 JLINK_ReadReg(R12)  returns 0xA5A5A5A5 (0000ms, 119659ms total)
T48FC 156343:162 JLINK_ReadReg(R13 (SP))  returns 0x20006AA0 (0000ms, 119659ms total)
T48FC 156343:162 JLINK_ReadReg(R14)  returns 0x0800A3F1 (0000ms, 119659ms total)
T48FC 156343:162 JLINK_ReadReg(R15 (PC))  returns 0x0800595C (0000ms, 119659ms total)
T48FC 156343:162 JLINK_ReadReg(XPSR)  returns 0x41000000 (0000ms, 119659ms total)
T48FC 156343:162 JLINK_ReadReg(MSP)  returns 0x20009678 (0000ms, 119659ms total)
T48FC 156343:162 JLINK_ReadReg(PSP)  returns 0x20006AA0 (0000ms, 119659ms total)
T48FC 156343:162 JLINK_ReadReg(CFBP)  returns 0x02000000 (0000ms, 119659ms total)
T36FC 156343:205 JLINK_ReadMemEx(0x20006D74, 0x0020 Bytes, ..., Flags = 0x02000000) -- CPU_ReadMem(128 bytes @ 0x20006D40) -- Updating C cache (128 bytes @ 0x20006D40) -- Read from C cache (32 bytes @ 0x20006D74) - Data: 00 00 00 00 00 00 00 00 00 00 00 00 00 00 00 00 ...  returns 0x20 (0003ms, 119662ms total)
T36FC 156343:209 JLINK_ReadMemEx(0x20000124, 0x0001 Bytes, ..., Flags = 0x02000000) -- CPU_ReadMem(64 bytes @ 0x20000100) -- Updating C cache (64 bytes @ 0x20000100) -- Read from C cache (1 bytes @ 0x20000124) - Data: 00  returns 0x01 (0002ms, 119664ms total)
T36FC 156343:230 JLINK_ReadMemEx(0x0800595C, 0x003C Bytes, ..., Flags = 0x02000000) -- CPU_ReadMem(128 bytes @ 0x08005940) -- Updating C cache (128 bytes @ 0x08005940) -- Read from C cache (60 bytes @ 0x0800595C) - Data: 03 F0 16 FD 03 F0 1C F8 03 22 51 49 51 48 FB F7 ...  returns 0x3C (0003ms, 119667ms total)
T48FC 156344:646 JLINK_ReadMemEx(0x0800595C, 0x0002 Bytes, ..., Flags = 0x02000000) -- Read from C cache (2 bytes @ 0x0800595C) - Data: 03 F0  returns 0x02 (0000ms, 119667ms total)
T48FC 156344:646 JLINK_Step() -- Read from C cache (2 bytes @ 0x0800595C) -- CPU_ReadMem(4 bytes @ 0xE000ED18) -- CPU_WriteMem(4 bytes @ 0xE000ED18) -- CPU_ReadMem(4 bytes @ 0xE000ED18) -- CPU_WriteMem(4 bytes @ 0xE000ED18) -- CPU_ReadMem(4 bytes @ 0xE0001004) -- Read from C cache (2 bytes @ 0x0800595E) -- Simulated  returns 0x00 (0004ms, 119671ms total)
T48FC 156344:651 JLINK_ReadReg(R15 (PC))  returns 0x0800938C (0000ms, 119671ms total)
T48FC 156344:651 JLINK_ReadReg(XPSR)  returns 0x41000000 (0000ms, 119671ms total)
T48FC 156344:651 JLINK_SetBPEx(Addr = 0x0800595C, Type = 0xFFFFFFF2)  returns 0x00000008 (0000ms, 119671ms total)
T48FC 156344:651 JLINK_SetBPEx(Addr = 0x08005EEE, Type = 0xFFFFFFF2)  returns 0x00000009 (0000ms, 119671ms total)
T48FC 156344:651 JLINK_SetBPEx(Addr = 0x08005CD4, Type = 0xFFFFFFF2)  returns 0x0000000A (0000ms, 119671ms total)
T48FC 156344:651 JLINK_Go() -- CPU_WriteMem(4 bytes @ 0xE0002000) -- CPU_WriteMem(4 bytes @ 0xE0002000) -- CPU_WriteMem(4 bytes @ 0xE0002000) -- CPU_ReadMem(4 bytes @ 0xE0001000) -- CPU_WriteMem(4 bytes @ 0xE0001004) (0006ms, 119677ms total)
T48FC 156344:757 JLINK_IsHalted()  returns FALSE (0001ms, 119678ms total)
T48FC 156344:859 JLINK_IsHalted()  returns FALSE (0001ms, 119678ms total)
T48FC 156344:961 JLINK_IsHalted()  returns FALSE (0001ms, 119678ms total)
T48FC 156345:063 JLINK_IsHalted()  returns FALSE (0001ms, 119678ms total)
T48FC 156345:165 JLINK_ReadMemU32(0xE0001004, 0x0001 Items, ...) -- CPU_ReadMem(4 bytes @ 0xE0001004) - Data: 66 1F 32 02  returns 0x01 (0001ms, 119678ms total)
T36FC 156345:173 JLINK_ReadMemEx(0x20006D74, 0x0020 Bytes, ..., Flags = 0x02000000) -- CPU_ReadMem(32 bytes @ 0x20006D74) - Data: 0D 5D 46 A0 B9 CF CB 41 00 00 00 00 00 00 00 00 ...  returns 0x20 (0001ms, 119679ms total)
